
TBD48 000:427 SEGGER J-Link V4.78k Log File (0001ms, 0268ms total)
TBD48 000:427 DLL Compiled: Dec  5 2013 20:27:15 (0001ms, 0268ms total)
TBD48 000:427 Logging started @ 2014-08-17 18:19 (0001ms, 0268ms total)
TBD48 000:428 JLINK_SetWarnOutHandler(...) (0000ms, 0268ms total)
TBD48 000:428 JLINK_OpenEx(...)
Firmware: J-Link ARM V8 compiled Nov 25 2013 19:20:08
Hardware: V8.00
S/N: 17935099
Feature(s): RDI,FlashDL,FlashBP,JFlash  returns O.K. (0278ms, 0546ms total)
TBD48 000:706 JLINK_SetErrorOutHandler(...) (0000ms, 0546ms total)
TBD48 000:706 JLINK_ExecCommand("ProjectFile = "M:\Project\Yue\Code\Project\JLinkSettings.ini"", ...)  returns 0x00 (0001ms, 0547ms total)
TBD48 000:707 JLINK_ExecCommand("Device = STM32F103RB", ...)Device "STM32F103RB" selected (128 KB flash, 20 KB RAM).  returns 0x00 (0001ms, 0548ms total)
TBD48 000:708 JLINK_ExecCommand("DisableConnectionTimeout", ...)  returns 0x01 (0000ms, 0548ms total)
TBD48 000:708 JLINK_GetHardwareVersion()  returns 0x13880 (0001ms, 0549ms total)
TBD48 000:709 JLINK_GetDLLVersion()  returns 47811 (0000ms, 0549ms total)
TBD48 000:709 JLINK_GetFirmwareString(...) (0000ms, 0549ms total)
TBD48 000:713 JLINK_GetDLLVersion()  returns 47811 (0000ms, 0549ms total)
TBD48 000:713 JLINK_GetCompileDateTime() (0000ms, 0549ms total)
TBD48 000:714 JLINK_GetFirmwareString(...) (0000ms, 0549ms total)
TBD48 000:714 JLINK_GetHardwareVersion()  returns 0x13880 (0001ms, 0550ms total)
TBD48 000:717 JLINK_TIF_Select(JLINKARM_TIF_JTAG)  returns 0x00 (0000ms, 0550ms total)
TBD48 000:717 JLINK_SetSpeed(10000) (0000ms, 0550ms total)
TBD48 000:717 JLINK_GetIdData(...) >0x2F8 JTAG>TotalIRLen = 9, IRPrint = 0x0011 >0x30 JTAG> >0x210 JTAG> >0x40 JTAG> >0x40 JTAG> >0x40 JTAG> >0x30 JTAG> >0x40 JTAG> >0x40 JTAG> >0x40 JTAG> >0x40 JTAG> >0x40 JTAG> >0x40 JTAG> >0x40 JTAG> >0x40 JTAG> >0x2F8 JTAG>TotalIRLen = 9, IRPrint = 0x0011 >0x30 JTAG> >0x210 JTAG> >0x70 JTAG> >0x40 JTAG> >0x40 JTAG> >0x40 JTAG> >0x50 JTAG> >0x80 JTAG> >0x40 JTAG> >0x30 JTAG> >0x40 JTAG> >0x40 JTAG> >0x30 JTAG> >0x40 JTAG> >0x50 JTAG>
Found Cortex-M3 r1p1, Little endian. -- CPU_WriteMem(4 bytes @ 0xE0002000) -- CPU_ReadMem(4 bytes @ 0xE000EDF0) -- CPU_ReadMem(4 bytes @ 0xE0002000)FPUnit: 6 code (BP) slots and 2 literal slots -- CPU_ReadMem(4 bytes @ 0xE000EDFC) -- CPU_ReadMem(4 bytes @ 0xE0001000) -- CPU_WriteMem(4 bytes @ 0xE0001000) -- CPU_ReadMem(4 bytes @ 0xE00FF010)TPIU fitted. -- CPU_ReadMem(4 bytes @ 0xE00FF014) -- CPU_ReadMem(4 bytes @ 0xE00FF018) ScanLen=9 NumDevices=2 aId[0]=0x3BA00477 aIrRead[0]=0 aScanLen[0]=0
 aScanRead[0]=0 (0024ms, 0574ms total)
TBD48 000:741 JLINK_JTAG_GetDeviceID(DeviceIndex = 0)  returns 0x3BA00477 (0000ms, 0574ms total)
TBD48 000:741 JLINK_JTAG_GetDeviceInfo(DeviceIndex = 0)  returns 0x00 (0000ms, 0574ms total)
TBD48 000:741 JLINK_JTAG_GetDeviceID(DeviceIndex = 1)  returns 0x16410041 (0000ms, 0574ms total)
TBD48 000:741 JLINK_JTAG_GetDeviceInfo(DeviceIndex = 1)  returns 0x00 (0000ms, 0574ms total)
TBD48 000:741 JLINK_GetDeviceFamily()  returns 3 (0000ms, 0574ms total)
TBD48 000:741 JLINK_ReadMem (0xE00FFFF0, 0x0010 Bytes, ...) -- CPU is running -- CPU_ReadMem(16 bytes @ 0xE00FFFF0) -- Data:  0D 00 00 00 10 00 00 00 05 00 00 00 B1 00 00 00  returns 0x00 (0001ms, 0575ms total)
TBD48 000:742 JLINK_ReadMem (0xE00FFFD0, 0x0020 Bytes, ...) -- CPU is running -- CPU_ReadMem(32 bytes @ 0xE00FFFD0) -- Data:  00 00 00 00 00 00 00 00 00 00 00 00 00 00 00 00 ...  returns 0x00 (0001ms, 0576ms total)
TBD48 000:743 JLINK_ReadMem (0xE00FF000, 0x0018 Bytes, ...) -- CPU is running -- CPU_ReadMem(24 bytes @ 0xE00FF000) -- Data:  03 F0 F0 FF 03 20 F0 FF 03 30 F0 FF 03 10 F0 FF ...  returns 0x00 (0000ms, 0576ms total)
TBD48 000:743 JLINK_ReadMemU32(0xE000ED00, 0x0001 Items, ...) -- CPU is running -- CPU_ReadMem(4 bytes @ 0xE000ED00) -- Data:  31 C2 1F 41  returns 0x01 (0001ms, 0577ms total)
TBD48 000:744 JLINK_SetResetType(JLINKARM_RESET_TYPE_NORMAL)  returns JLINKARM_RESET_TYPE_NORMAL (0000ms, 0577ms total)
TBD48 000:744 JLINK_Reset() -- CPU is running -- CPU_WriteMem(4 bytes @ 0xE000EDF0) -- CPU is running -- CPU_WriteMem(4 bytes @ 0xE000EDFC) -- CPU is running -- CPU_WriteMem(4 bytes @ 0xE000ED0C) -- CPU is running -- CPU_ReadMem(4 bytes @ 0xE000EDF0) -- CPU is running -- CPU_ReadMem(4 bytes @ 0xE000EDF0) -- CPU is running -- CPU_WriteMem(4 bytes @ 0xE000EDF0) -- CPU is running -- CPU_WriteMem(4 bytes @ 0xE000EDFC) -- CPU is running -- CPU_ReadMem(4 bytes @ 0xE000EDF0) >0x80 JTAG> >0x40 JTAG> >0x30 JTAG>
 >0x40 JTAG> >0x50 JTAG> >0x40 JTAG> -- CPU_WriteMem(4 bytes @ 0xE000EDFC) -- CPU_WriteMem(4 bytes @ 0xE0001028) -- CPU_WriteMem(4 bytes @ 0xE0001038) -- CPU_WriteMem(4 bytes @ 0xE0001048) -- CPU_WriteMem(4 bytes @ 0xE0001058) -- CPU_WriteMem(4 bytes @ 0xE0002000) (0026ms, 0603ms total)
TBD48 000:770 JLINK_ReadReg(R15 (PC))  returns 0x080002DC (0000ms, 0603ms total)
TBD48 000:770 JLINK_ReadReg(XPSR)  returns 0x01000000 (0000ms, 0603ms total)
TBD48 000:770 JLINK_Halt()  returns 0x00 (0000ms, 0603ms total)
TBD48 000:770 JLINK_IsHalted()  returns TRUE (0000ms, 0603ms total)
TBD48 000:770 JLINK_ReadMemU32(0xE000EDF0, 0x0001 Items, ...) -- CPU_ReadMem(4 bytes @ 0xE000EDF0) -- Data:  03 00 03 00  returns 0x01 (0000ms, 0603ms total)
TBD48 000:770 JLINK_WriteU32(0xE000EDF0, 0xA05F0003) -- CPU_WriteMem(4 bytes @ 0xE000EDF0)  returns 0x00 (0001ms, 0604ms total)
TBD48 000:771 JLINK_WriteU32(0xE000EDFC, 0x01000000) -- CPU_WriteMem(4 bytes @ 0xE000EDFC)  returns 0x00 (0000ms, 0604ms total)
TBD48 000:775 JLINK_GetHWStatus(...)  returns 0x00 (0000ms, 0604ms total)
TBD48 000:776 JLINK_GetNumBPUnits(Type = 0xFFFFFF00)  returns 0x06 (0000ms, 0604ms total)
TBD48 000:776 JLINK_GetNumBPUnits(Type = 0xF0)  returns 0x2000 (0000ms, 0604ms total)
TBD48 000:776 JLINK_GetNumWPUnits()  returns 0x04 (0000ms, 0604ms total)
TBD48 000:776 JLINK_GetSpeed()  returns 0x2580 (0001ms, 0605ms total)
TBD48 000:777 JLINK_ReadMemU32(0xE000E004, 0x0001 Items, ...) -- CPU_ReadMem(4 bytes @ 0xE000E004) -- Data:  01 00 00 00  returns 0x01 (0000ms, 0605ms total)
TBD48 000:777 JLINK_ReadMemU32(0xE000E004, 0x0001 Items, ...) -- CPU_ReadMem(4 bytes @ 0xE000E004) -- Data:  01 00 00 00  returns 0x01 (0001ms, 0606ms total)
TBD48 000:778 JLINK_WriteMem(0xE0001000, 0x001C Bytes, ...) -- Data:  01 00 00 00 00 00 00 00 00 00 00 00 00 00 00 00 ... -- CPU_WriteMem(28 bytes @ 0xE0001000)  returns 0x1C (0001ms, 0607ms total)
TBD48 000:779 JLINK_ReadMem (0xE0001000, 0x001C Bytes, ...) -- CPU_ReadMem(28 bytes @ 0xE0001000) -- Data:  01 00 00 40 00 00 00 00 00 00 00 00 00 00 00 00 ...  returns 0x00 (0000ms, 0607ms total)
TBD48 000:779 JLINK_ReadReg(R15 (PC))  returns 0x080002DC (0000ms, 0607ms total)
TBD48 000:779 JLINK_ReadReg(XPSR)  returns 0x01000000 (0000ms, 0607ms total)
TBD48 000:866 JLINK_SetResetType(JLINKARM_RESET_TYPE_NORMAL)  returns JLINKARM_RESET_TYPE_NORMAL (0000ms, 0607ms total)
TBD48 000:866 JLINK_Reset() -- CPU_WriteMem(4 bytes @ 0xE000EDF0) -- CPU_WriteMem(4 bytes @ 0xE000EDFC) -- CPU_WriteMem(4 bytes @ 0xE000ED0C) -- CPU_ReadMem(4 bytes @ 0xE000EDF0) -- CPU_ReadMem(4 bytes @ 0xE000EDF0) -- CPU_WriteMem(4 bytes @ 0xE000EDF0) -- CPU_WriteMem(4 bytes @ 0xE000EDFC) -- CPU is running -- CPU_ReadMem(4 bytes @ 0xE000EDF0) >0x80 JTAG> >0x40 JTAG> >0x30 JTAG> >0x40 JTAG> >0x50 JTAG> >0x40 JTAG> -- CPU_WriteMem(4 bytes @ 0xE000EDFC) -- CPU_WriteMem(4 bytes @ 0xE0001028)
 -- CPU_WriteMem(4 bytes @ 0xE0001038) -- CPU_WriteMem(4 bytes @ 0xE0001048) -- CPU_WriteMem(4 bytes @ 0xE0001058) -- CPU_WriteMem(4 bytes @ 0xE0002000) (0025ms, 0632ms total)
TBD48 000:892 JLINK_ReadReg(R15 (PC))  returns 0x080002DC (0000ms, 0632ms total)
TBD48 000:892 JLINK_ReadReg(XPSR)  returns 0x01000000 (0000ms, 0632ms total)
TBD48 001:113 JLINK_ReadMem (0x080002DC, 0x003C Bytes, ...) -- CPU_ReadMem(128 bytes @ 0x080002C0) -- Updating C cache (128 bytes @ 0x080002C0) -- Read from C cache (60 bytes @ 0x080002DC) -- Data:  06 48 80 47 06 48 00 47 FE E7 FE E7 FE E7 FE E7 ...  returns 0x00 (0001ms, 0633ms total)
T11548 002:292 JLINK_SetBPEx(Addr = 0x08001D22, Type = 0xFFFFFFF2)  returns 0x00000001 (0001ms, 0634ms total)
T11548 002:293 JLINK_SetBPEx(Addr = 0x0800207A, Type = 0xFFFFFFF2)  returns 0x00000002 (0000ms, 0634ms total)
T11548 002:293 JLINK_SetBPEx(Addr = 0x08001E80, Type = 0xFFFFFFF2)  returns 0x00000003 (0000ms, 0634ms total)
T11548 002:293 JLINK_Go() -- CPU_WriteMem(4 bytes @ 0xE0002008) -- CPU_WriteMem(4 bytes @ 0xE000200C) -- CPU_WriteMem(4 bytes @ 0xE0002010) -- CPU_WriteMem(4 bytes @ 0xE0002014) -- CPU_WriteMem(4 bytes @ 0xE0002018) -- CPU_WriteMem(4 bytes @ 0xE000201C) (0003ms, 0637ms total)
T11548 002:397 JLINK_IsHalted()  returns TRUE (0002ms, 0639ms total)
T11548 002:399 JLINK_Halt()  returns 0x00 (0000ms, 0637ms total)
T11548 002:399 JLINK_IsHalted()  returns TRUE (0000ms, 0637ms total)
T11548 002:399 JLINK_IsHalted()  returns TRUE (0000ms, 0637ms total)
T11548 002:399 JLINK_IsHalted()  returns TRUE (0000ms, 0637ms total)
T11548 002:399 JLINK_ReadReg(R15 (PC))  returns 0x08001D22 (0000ms, 0637ms total)
T11548 002:399 JLINK_ReadReg(XPSR)  returns 0x61000000 (0000ms, 0637ms total)
T11548 002:399 JLINK_ClrBPEx(BPHandle = 0x00000001)  returns 0x00 (0000ms, 0637ms total)
T11548 002:399 JLINK_ClrBPEx(BPHandle = 0x00000002)  returns 0x00 (0000ms, 0637ms total)
T11548 002:399 JLINK_ClrBPEx(BPHandle = 0x00000003)  returns 0x00 (0000ms, 0637ms total)
T11548 002:399 JLINK_ReadMemU32(0xE000ED30, 0x0001 Items, ...) -- CPU_ReadMem(4 bytes @ 0xE000ED30) -- Data:  03 00 00 00  returns 0x01 (0001ms, 0638ms total)
T11548 002:400 JLINK_ReadMemU32(0xE0001028, 0x0001 Items, ...) -- CPU_ReadMem(4 bytes @ 0xE0001028) -- Data:  00 00 00 00  returns 0x01 (0000ms, 0638ms total)
T11548 002:400 JLINK_ReadMemU32(0xE0001038, 0x0001 Items, ...) -- CPU_ReadMem(4 bytes @ 0xE0001038) -- Data:  00 02 00 00  returns 0x01 (0001ms, 0639ms total)
T11548 002:401 JLINK_ReadMemU32(0xE0001048, 0x0001 Items, ...) -- CPU_ReadMem(4 bytes @ 0xE0001048) -- Data:  00 00 00 00  returns 0x01 (0000ms, 0639ms total)
T11548 002:401 JLINK_ReadMemU32(0xE0001058, 0x0001 Items, ...) -- CPU_ReadMem(4 bytes @ 0xE0001058) -- Data:  00 00 00 00  returns 0x01 (0001ms, 0640ms total)
T11548 002:402 JLINK_ReadReg(R0)  returns 0x08001D23 (0000ms, 0640ms total)
T11548 002:402 JLINK_ReadReg(R1)  returns 0x20001068 (0000ms, 0640ms total)
T11548 002:402 JLINK_ReadReg(R2)  returns 0x00000000 (0000ms, 0640ms total)
T11548 002:402 JLINK_ReadReg(R3)  returns 0x080022F5 (0000ms, 0640ms total)
T11548 002:402 JLINK_ReadReg(R4)  returns 0x080023F4 (0000ms, 0640ms total)
T11548 002:402 JLINK_ReadReg(R5)  returns 0x080023F4 (0000ms, 0640ms total)
T11548 002:402 JLINK_ReadReg(R6)  returns 0x00000000 (0000ms, 0640ms total)
T11548 002:402 JLINK_ReadReg(R7)  returns 0x00000000 (0000ms, 0640ms total)
T11548 002:402 JLINK_ReadReg(R8)  returns 0x00000000 (0000ms, 0640ms total)
T11548 002:402 JLINK_ReadReg(R9)  returns 0x20000160 (0000ms, 0640ms total)
T11548 002:402 JLINK_ReadReg(R10)  returns 0x00000000 (0000ms, 0640ms total)
T11548 002:402 JLINK_ReadReg(R11)  returns 0x00000000 (0000ms, 0640ms total)
T11548 002:402 JLINK_ReadReg(R12)  returns 0x00000080 (0000ms, 0640ms total)
T11548 002:402 JLINK_ReadReg(R13 (SP))  returns 0x20001068 (0000ms, 0640ms total)
T11548 002:402 JLINK_ReadReg(R14)  returns 0x080022BD (0000ms, 0640ms total)
T11548 002:402 JLINK_ReadReg(R15 (PC))  returns 0x08001D22 (0000ms, 0640ms total)
T11548 002:402 JLINK_ReadReg(XPSR)  returns 0x61000000 (0000ms, 0640ms total)
T11548 002:402 JLINK_ReadReg(MSP)  returns 0x20001068 (0000ms, 0640ms total)
T11548 002:402 JLINK_ReadReg(PSP)  returns 0x20000800 (0000ms, 0640ms total)
T11548 002:402 JLINK_ReadReg(CFBP)  returns 0x00000000 (0000ms, 0640ms total)
TBD48 002:403 JLINK_ReadMem (0x00000000, 0x0001 Bytes, ...) -- CPU_ReadMem(4 bytes @ 0x00000004) -- CPU_ReadMem(64 bytes @ 0x08000000) -- Updating C cache (64 bytes @ 0x08000000) -- Read from C cache (1 bytes @ 0x08000000) -- Data:  68  returns 0x00 (0001ms, 0641ms total)
TBD48 002:409 JLINK_ReadMemU32(0xE0001004, 0x0001 Items, ...) -- CPU_ReadMem(4 bytes @ 0xE0001004) -- Data:  98 3E 00 00  returns 0x01 (0001ms, 0642ms total)
TBD48 002:413 JLINK_ReadMem (0x08001D22, 0x0002 Bytes, ...) -- CPU_ReadMem(64 bytes @ 0x08001D00) -- Updating C cache (64 bytes @ 0x08001D00) -- Read from C cache (2 bytes @ 0x08001D22) -- Data:  00 F0  returns 0x00 (0001ms, 0643ms total)
TBD48 002:414 JLINK_ReadMem (0x08001D24, 0x003C Bytes, ...) -- CPU_ReadMem(64 bytes @ 0x08001D40) -- Updating C cache (64 bytes @ 0x08001D40) -- Read from C cache (60 bytes @ 0x08001D24) -- Data:  9F F9 48 20 00 F0 D8 F9 00 F0 A8 F9 24 A1 26 A0 ...  returns 0x00 (0001ms, 0644ms total)
T11548 004:976 JLINK_SetBPEx(Addr = 0x08001D26, Type = 0xFFFFFFF2)  returns 0x00000004 (0000ms, 0644ms total)
T11548 004:977 JLINK_SetBPEx(Addr = 0x0800207A, Type = 0xFFFFFFF2)  returns 0x00000005 (0000ms, 0644ms total)
T11548 004:977 JLINK_SetBPEx(Addr = 0x08001E80, Type = 0xFFFFFFF2)  returns 0x00000006 (0000ms, 0644ms total)
T11548 004:977 JLINK_Go() -- CPU_WriteMem(4 bytes @ 0xE0002008) (0001ms, 0645ms total)
T11548 005:079 JLINK_IsHalted()  returns TRUE (0002ms, 0647ms total)
T11548 005:081 JLINK_Halt()  returns 0x00 (0000ms, 0645ms total)
T11548 005:081 JLINK_IsHalted()  returns TRUE (0000ms, 0645ms total)
T11548 005:081 JLINK_IsHalted()  returns TRUE (0000ms, 0645ms total)
T11548 005:081 JLINK_IsHalted()  returns TRUE (0000ms, 0645ms total)
T11548 005:081 JLINK_ReadReg(R15 (PC))  returns 0x0800207A (0000ms, 0645ms total)
T11548 005:081 JLINK_ReadReg(XPSR)  returns 0x01000000 (0000ms, 0645ms total)
T11548 005:081 JLINK_ClrBPEx(BPHandle = 0x00000004)  returns 0x00 (0000ms, 0645ms total)
T11548 005:081 JLINK_ClrBPEx(BPHandle = 0x00000005)  returns 0x00 (0000ms, 0645ms total)
T11548 005:081 JLINK_ClrBPEx(BPHandle = 0x00000006)  returns 0x00 (0000ms, 0645ms total)
T11548 005:081 JLINK_ReadMemU32(0xE000ED30, 0x0001 Items, ...) -- CPU_ReadMem(4 bytes @ 0xE000ED30) -- Data:  03 00 00 00  returns 0x01 (0001ms, 0646ms total)
T11548 005:082 JLINK_ReadMemU32(0xE0001028, 0x0001 Items, ...) -- CPU_ReadMem(4 bytes @ 0xE0001028) -- Data:  00 00 00 00  returns 0x01 (0001ms, 0647ms total)
T11548 005:083 JLINK_ReadMemU32(0xE0001038, 0x0001 Items, ...) -- CPU_ReadMem(4 bytes @ 0xE0001038) -- Data:  00 02 00 00  returns 0x01 (0000ms, 0647ms total)
T11548 005:083 JLINK_ReadMemU32(0xE0001048, 0x0001 Items, ...) -- CPU_ReadMem(4 bytes @ 0xE0001048) -- Data:  00 00 00 00  returns 0x01 (0001ms, 0648ms total)
T11548 005:084 JLINK_ReadMemU32(0xE0001058, 0x0001 Items, ...) -- CPU_ReadMem(4 bytes @ 0xE0001058) -- Data:  00 00 00 00  returns 0x01 (0000ms, 0648ms total)
T11548 005:084 JLINK_ReadReg(R0)  returns 0x20001050 (0000ms, 0648ms total)
T11548 005:084 JLINK_ReadReg(R1)  returns 0x40010400 (0000ms, 0648ms total)
T11548 005:084 JLINK_ReadReg(R2)  returns 0x00000080 (0001ms, 0649ms total)
T11548 005:085 JLINK_ReadReg(R3)  returns 0x04011000 (0000ms, 0649ms total)
T11548 005:085 JLINK_ReadReg(R4)  returns 0x080023F4 (0000ms, 0649ms total)
T11548 005:085 JLINK_ReadReg(R5)  returns 0x080023F4 (0000ms, 0649ms total)
T11548 005:085 JLINK_ReadReg(R6)  returns 0x00000000 (0000ms, 0649ms total)
T11548 005:085 JLINK_ReadReg(R7)  returns 0x00000000 (0000ms, 0649ms total)
T11548 005:085 JLINK_ReadReg(R8)  returns 0x00000000 (0000ms, 0649ms total)
T11548 005:085 JLINK_ReadReg(R9)  returns 0x20000160 (0000ms, 0649ms total)
T11548 005:085 JLINK_ReadReg(R10)  returns 0x00000000 (0000ms, 0649ms total)
T11548 005:085 JLINK_ReadReg(R11)  returns 0x00000000 (0000ms, 0649ms total)
T11548 005:085 JLINK_ReadReg(R12)  returns 0x00000080 (0000ms, 0649ms total)
T11548 005:085 JLINK_ReadReg(R13 (SP))  returns 0x20001060 (0000ms, 0649ms total)
T11548 005:085 JLINK_ReadReg(R14)  returns 0x08001F2D (0000ms, 0649ms total)
T11548 005:085 JLINK_ReadReg(R15 (PC))  returns 0x0800207A (0000ms, 0649ms total)
T11548 005:085 JLINK_ReadReg(XPSR)  returns 0x01000000 (0000ms, 0649ms total)
T11548 005:085 JLINK_ReadReg(MSP)  returns 0x20001060 (0000ms, 0649ms total)
T11548 005:085 JLINK_ReadReg(PSP)  returns 0x20000800 (0000ms, 0649ms total)
T11548 005:085 JLINK_ReadReg(CFBP)  returns 0x00000000 (0000ms, 0649ms total)
TBD48 005:087 JLINK_ReadMem (0x20001064, 0x0004 Bytes, ...) -- CPU_ReadMem(64 bytes @ 0x20001040) -- Updating C cache (64 bytes @ 0x20001040) -- Read from C cache (4 bytes @ 0x20001064) -- Data:  27 1D 00 08  returns 0x00 (0001ms, 0650ms total)
TBD48 005:088 JLINK_ReadMem (0x20001060, 0x0004 Bytes, ...) -- Read from C cache (4 bytes @ 0x20001060) -- Data:  F4 23 00 08  returns 0x00 (0000ms, 0650ms total)
TBD48 005:093 JLINK_ReadMem (0x00000000, 0x0001 Bytes, ...) -- CPU_ReadMem(4 bytes @ 0x00000004) -- CPU_ReadMem(64 bytes @ 0x08000000) -- Updating C cache (64 bytes @ 0x08000000) -- Read from C cache (1 bytes @ 0x08000000) -- Data:  68  returns 0x00 (0001ms, 0651ms total)
TBD48 005:094 JLINK_ReadMemU32(0xE0001004, 0x0001 Items, ...) -- CPU_ReadMem(4 bytes @ 0xE0001004) -- Data:  4E 4E 00 00  returns 0x01 (0001ms, 0652ms total)
TBD48 005:097 JLINK_ReadMem (0x0800207A, 0x0002 Bytes, ...) -- CPU_ReadMem(64 bytes @ 0x08002040) -- Updating C cache (64 bytes @ 0x08002040) -- Read from C cache (2 bytes @ 0x0800207A) -- Data:  FF F7  returns 0x00 (0001ms, 0653ms total)
TBD48 005:098 JLINK_ReadMem (0x0800207C, 0x003C Bytes, ...) -- CPU_ReadMem(64 bytes @ 0x08002080) -- Updating C cache (64 bytes @ 0x08002080) -- Read from C cache (60 bytes @ 0x0800207C) -- Data:  1F FF 10 BD 70 47 0E B5 14 48 FE F7 27 FD C7 20 ...  returns 0x00 (0001ms, 0654ms total)
T11548 006:455 JLINK_Step() -- Read from C cache (2 bytes @ 0x0800207A) -- Read from C cache (2 bytes @ 0x0800207C) -- Simulated  returns 0x00 (0000ms, 0654ms total)
T11548 006:455 JLINK_ReadReg(R15 (PC))  returns 0x08001EBC (0000ms, 0654ms total)
T11548 006:455 JLINK_ReadReg(XPSR)  returns 0x01000000 (0000ms, 0654ms total)
T11548 006:455 JLINK_SetBPEx(Addr = 0x0800207E, Type = 0xFFFFFFF2)  returns 0x00000007 (0001ms, 0655ms total)
T11548 006:456 JLINK_SetBPEx(Addr = 0x0800207A, Type = 0xFFFFFFF2)  returns 0x00000008 (0000ms, 0655ms total)
T11548 006:456 JLINK_SetBPEx(Addr = 0x08001E80, Type = 0xFFFFFFF2)  returns 0x00000009 (0000ms, 0655ms total)
T11548 006:456 JLINK_Go() -- CPU_WriteMem(4 bytes @ 0xE0002008) (0001ms, 0656ms total)
T11548 006:558 JLINK_IsHalted()  returns TRUE (0002ms, 0658ms total)
T11548 006:560 JLINK_Halt()  returns 0x00 (0000ms, 0656ms total)
T11548 006:560 JLINK_IsHalted()  returns TRUE (0001ms, 0657ms total)
T11548 006:561 JLINK_IsHalted()  returns TRUE (0000ms, 0656ms total)
T11548 006:561 JLINK_IsHalted()  returns TRUE (0000ms, 0656ms total)
T11548 006:561 JLINK_ReadReg(R15 (PC))  returns 0x08001E80 (0000ms, 0656ms total)
T11548 006:561 JLINK_ReadReg(XPSR)  returns 0x01000027 (0000ms, 0656ms total)
T11548 006:561 JLINK_ClrBPEx(BPHandle = 0x00000007)  returns 0x00 (0000ms, 0656ms total)
T11548 006:561 JLINK_ClrBPEx(BPHandle = 0x00000008)  returns 0x00 (0000ms, 0656ms total)
T11548 006:561 JLINK_ClrBPEx(BPHandle = 0x00000009)  returns 0x00 (0000ms, 0656ms total)
T11548 006:561 JLINK_ReadMemU32(0xE000ED30, 0x0001 Items, ...) -- CPU_ReadMem(4 bytes @ 0xE000ED30) -- Data:  03 00 00 00  returns 0x01 (0001ms, 0657ms total)
T11548 006:562 JLINK_ReadMemU32(0xE0001028, 0x0001 Items, ...) -- CPU_ReadMem(4 bytes @ 0xE0001028) -- Data:  00 00 00 00  returns 0x01 (0001ms, 0658ms total)
T11548 006:563 JLINK_ReadMemU32(0xE0001038, 0x0001 Items, ...) -- CPU_ReadMem(4 bytes @ 0xE0001038) -- Data:  00 02 00 00  returns 0x01 (0000ms, 0658ms total)
T11548 006:563 JLINK_ReadMemU32(0xE0001048, 0x0001 Items, ...) -- CPU_ReadMem(4 bytes @ 0xE0001048) -- Data:  00 00 00 00  returns 0x01 (0001ms, 0659ms total)
T11548 006:564 JLINK_ReadMemU32(0xE0001058, 0x0001 Items, ...) -- CPU_ReadMem(4 bytes @ 0xE0001058) -- Data:  00 00 00 00  returns 0x01 (0001ms, 0660ms total)
T11548 006:565 JLINK_ReadReg(R0)  returns 0x20001050 (0000ms, 0660ms total)
T11548 006:565 JLINK_ReadReg(R1)  returns 0x40010400 (0000ms, 0660ms total)
T11548 006:565 JLINK_ReadReg(R2)  returns 0x00000080 (0000ms, 0660ms total)
T11548 006:565 JLINK_ReadReg(R3)  returns 0x04011000 (0000ms, 0660ms total)
T11548 006:565 JLINK_ReadReg(R4)  returns 0x080023F4 (0000ms, 0660ms total)
T11548 006:565 JLINK_ReadReg(R5)  returns 0x080023F4 (0000ms, 0660ms total)
T11548 006:565 JLINK_ReadReg(R6)  returns 0x00000000 (0000ms, 0660ms total)
T11548 006:565 JLINK_ReadReg(R7)  returns 0x00000000 (0000ms, 0660ms total)
T11548 006:565 JLINK_ReadReg(R8)  returns 0x00000000 (0000ms, 0660ms total)
T11548 006:565 JLINK_ReadReg(R9)  returns 0x20000160 (0000ms, 0660ms total)
T11548 006:565 JLINK_ReadReg(R10)  returns 0x00000000 (0000ms, 0660ms total)
T11548 006:565 JLINK_ReadReg(R11)  returns 0x00000000 (0001ms, 0661ms total)
T11548 006:566 JLINK_ReadReg(R12)  returns 0x00000080 (0000ms, 0661ms total)
T11548 006:566 JLINK_ReadReg(R13 (SP))  returns 0x20001038 (0000ms, 0661ms total)
T11548 006:566 JLINK_ReadReg(R14)  returns 0xFFFFFFF9 (0000ms, 0661ms total)
T11548 006:566 JLINK_ReadReg(R15 (PC))  returns 0x08001E80 (0000ms, 0661ms total)
T11548 006:566 JLINK_ReadReg(XPSR)  returns 0x01000027 (0000ms, 0661ms total)
T11548 006:566 JLINK_ReadReg(MSP)  returns 0x20001038 (0000ms, 0661ms total)
T11548 006:566 JLINK_ReadReg(PSP)  returns 0x20000800 (0000ms, 0661ms total)
T11548 006:566 JLINK_ReadReg(CFBP)  returns 0x00000000 (0000ms, 0661ms total)
TBD48 006:567 JLINK_ReadMem (0x2000103C, 0x0004 Bytes, ...) -- CPU_ReadMem(64 bytes @ 0x20001000) -- Updating C cache (64 bytes @ 0x20001000) -- Read from C cache (4 bytes @ 0x2000103C) -- Data:  F9 FF FF FF  returns 0x00 (0001ms, 0662ms total)
TBD48 006:568 JLINK_ReadMem (0x20001058, 0x0004 Bytes, ...) -- CPU_ReadMem(64 bytes @ 0x20001040) -- Updating C cache (64 bytes @ 0x20001040) -- Read from C cache (4 bytes @ 0x20001058) -- Data:  BC 1E 00 08  returns 0x00 (0001ms, 0663ms total)
TBD48 006:569 JLINK_ReadMem (0x2000105C, 0x0004 Bytes, ...) -- Read from C cache (4 bytes @ 0x2000105C) -- Data:  00 00 00 01  returns 0x00 (0000ms, 0663ms total)
TBD48 006:569 JLINK_ReadMem (0x20001054, 0x0004 Bytes, ...) -- Read from C cache (4 bytes @ 0x20001054) -- Data:  7F 20 00 08  returns 0x00 (0000ms, 0663ms total)
TBD48 006:569 JLINK_ReadMem (0xE000ED28, 0x0004 Bytes, ...) -- CPU_ReadMem(4 bytes @ 0xE000ED28) -- Data:  00 00 00 00  returns 0x00 (0001ms, 0664ms total)
TBD48 006:593 JLINK_ReadMemU32(0xE0001004, 0x0001 Items, ...) -- CPU_ReadMem(4 bytes @ 0xE0001004) -- Data:  5A 4E 00 00  returns 0x01 (0000ms, 0664ms total)
TBD48 006:598 JLINK_ReadMem (0x08001E80, 0x003C Bytes, ...) -- CPU_ReadMem(64 bytes @ 0x08001E80) -- Updating C cache (64 bytes @ 0x08001E80) -- Read from C cache (60 bytes @ 0x08001E80) -- Data:  80 20 00 F0 F3 F9 58 B1 80 21 06 48 FE F7 97 FB ...  returns 0x00 (0000ms, 0664ms total)
T11548 008:973 JLINK_Step() -- Read from C cache (2 bytes @ 0x08001E80) -- Simulated  returns 0x00 (0001ms, 0665ms total)
T11548 008:974 JLINK_ReadReg(R15 (PC))  returns 0x08001E82 (0000ms, 0665ms total)
T11548 008:974 JLINK_ReadReg(XPSR)  returns 0x01000027 (0000ms, 0665ms total)
T11548 008:974 JLINK_SetBPEx(Addr = 0x08001E86, Type = 0xFFFFFFF2)  returns 0x0000000A (0000ms, 0665ms total)
T11548 008:974 JLINK_SetBPEx(Addr = 0x0800207A, Type = 0xFFFFFFF2)  returns 0x0000000B (0000ms, 0665ms total)
T11548 008:974 JLINK_SetBPEx(Addr = 0x08001E80, Type = 0xFFFFFFF2)  returns 0x0000000C (0000ms, 0665ms total)
T11548 008:974 JLINK_Go() -- CPU_WriteMem(4 bytes @ 0xE0002008) (0001ms, 0666ms total)
T11548 009:076 JLINK_IsHalted()  returns TRUE (0002ms, 0668ms total)
T11548 009:078 JLINK_Halt()  returns 0x00 (0000ms, 0666ms total)
T11548 009:078 JLINK_IsHalted()  returns TRUE (0000ms, 0666ms total)
T11548 009:078 JLINK_IsHalted()  returns TRUE (0000ms, 0666ms total)
T11548 009:078 JLINK_IsHalted()  returns TRUE (0000ms, 0666ms total)
T11548 009:078 JLINK_ReadReg(R15 (PC))  returns 0x08001E86 (0000ms, 0666ms total)
T11548 009:078 JLINK_ReadReg(XPSR)  returns 0x01000027 (0000ms, 0666ms total)
T11548 009:078 JLINK_ClrBPEx(BPHandle = 0x0000000A)  returns 0x00 (0000ms, 0666ms total)
T11548 009:078 JLINK_ClrBPEx(BPHandle = 0x0000000B)  returns 0x00 (0000ms, 0666ms total)
T11548 009:078 JLINK_ClrBPEx(BPHandle = 0x0000000C)  returns 0x00 (0000ms, 0666ms total)
T11548 009:078 JLINK_ReadMemU32(0xE000ED30, 0x0001 Items, ...) -- CPU_ReadMem(4 bytes @ 0xE000ED30) -- Data:  03 00 00 00  returns 0x01 (0001ms, 0667ms total)
T11548 009:079 JLINK_ReadMemU32(0xE0001028, 0x0001 Items, ...) -- CPU_ReadMem(4 bytes @ 0xE0001028) -- Data:  00 00 00 00  returns 0x01 (0000ms, 0667ms total)
T11548 009:079 JLINK_ReadMemU32(0xE0001038, 0x0001 Items, ...) -- CPU_ReadMem(4 bytes @ 0xE0001038) -- Data:  00 02 00 00  returns 0x01 (0001ms, 0668ms total)
T11548 009:080 JLINK_ReadMemU32(0xE0001048, 0x0001 Items, ...) -- CPU_ReadMem(4 bytes @ 0xE0001048) -- Data:  00 00 00 00  returns 0x01 (0000ms, 0668ms total)
T11548 009:080 JLINK_ReadMemU32(0xE0001058, 0x0001 Items, ...) -- CPU_ReadMem(4 bytes @ 0xE0001058) -- Data:  00 00 00 00  returns 0x01 (0001ms, 0669ms total)
T11548 009:081 JLINK_Step() -- CPU_ReadMem(64 bytes @ 0x08001E80) -- Updating C cache (64 bytes @ 0x08001E80) -- Read from C cache (2 bytes @ 0x08001E86) -- Simulated  returns 0x00 (0001ms, 0670ms total)
T11548 009:082 JLINK_ReadReg(R15 (PC))  returns 0x08001E88 (0000ms, 0670ms total)
T11548 009:082 JLINK_ReadReg(XPSR)  returns 0x01000027 (0000ms, 0670ms total)
T11548 009:082 JLINK_ReadReg(R0)  returns 0x00000001 (0000ms, 0670ms total)
T11548 009:082 JLINK_ReadReg(R1)  returns 0x00000080 (0000ms, 0670ms total)
T11548 009:082 JLINK_ReadReg(R2)  returns 0x00000080 (0000ms, 0670ms total)
T11548 009:082 JLINK_ReadReg(R3)  returns 0x00000080 (0000ms, 0670ms total)
T11548 009:082 JLINK_ReadReg(R4)  returns 0x080023F4 (0000ms, 0670ms total)
T11548 009:082 JLINK_ReadReg(R5)  returns 0x080023F4 (0000ms, 0670ms total)
T11548 009:082 JLINK_ReadReg(R6)  returns 0x00000000 (0000ms, 0670ms total)
T11548 009:082 JLINK_ReadReg(R7)  returns 0x00000000 (0000ms, 0670ms total)
T11548 009:082 JLINK_ReadReg(R8)  returns 0x00000000 (0000ms, 0670ms total)
T11548 009:082 JLINK_ReadReg(R9)  returns 0x20000160 (0000ms, 0670ms total)
T11548 009:082 JLINK_ReadReg(R10)  returns 0x00000000 (0000ms, 0670ms total)
T11548 009:082 JLINK_ReadReg(R11)  returns 0x00000000 (0000ms, 0670ms total)
T11548 009:082 JLINK_ReadReg(R12)  returns 0x00000080 (0000ms, 0670ms total)
T11548 009:082 JLINK_ReadReg(R13 (SP))  returns 0x20001038 (0000ms, 0670ms total)
T11548 009:082 JLINK_ReadReg(R14)  returns 0x08001E87 (0000ms, 0670ms total)
T11548 009:082 JLINK_ReadReg(R15 (PC))  returns 0x08001E88 (0000ms, 0670ms total)
T11548 009:082 JLINK_ReadReg(XPSR)  returns 0x01000027 (0000ms, 0670ms total)
T11548 009:082 JLINK_ReadReg(MSP)  returns 0x20001038 (0000ms, 0670ms total)
T11548 009:082 JLINK_ReadReg(PSP)  returns 0x20000800 (0000ms, 0670ms total)
T11548 009:082 JLINK_ReadReg(CFBP)  returns 0x00000000 (0000ms, 0670ms total)
TBD48 009:082 JLINK_ReadMem (0x2000103C, 0x0004 Bytes, ...) -- CPU_ReadMem(64 bytes @ 0x20001000) -- Updating C cache (64 bytes @ 0x20001000) -- Read from C cache (4 bytes @ 0x2000103C) -- Data:  F9 FF FF FF  returns 0x00 (0001ms, 0671ms total)
TBD48 009:083 JLINK_ReadMem (0x20001058, 0x0004 Bytes, ...) -- CPU_ReadMem(64 bytes @ 0x20001040) -- Updating C cache (64 bytes @ 0x20001040) -- Read from C cache (4 bytes @ 0x20001058) -- Data:  BC 1E 00 08  returns 0x00 (0001ms, 0672ms total)
TBD48 009:084 JLINK_ReadMem (0x2000105C, 0x0004 Bytes, ...) -- Read from C cache (4 bytes @ 0x2000105C) -- Data:  00 00 00 01  returns 0x00 (0000ms, 0672ms total)
TBD48 009:084 JLINK_ReadMem (0x20001054, 0x0004 Bytes, ...) -- Read from C cache (4 bytes @ 0x20001054) -- Data:  7F 20 00 08  returns 0x00 (0000ms, 0672ms total)
TBD48 009:084 JLINK_ReadMem (0xE000ED28, 0x0004 Bytes, ...) -- CPU_ReadMem(4 bytes @ 0xE000ED28) -- Data:  00 00 00 00  returns 0x00 (0001ms, 0673ms total)
TBD48 009:085 JLINK_ReadMemU32(0xE0001004, 0x0001 Items, ...) -- CPU_ReadMem(4 bytes @ 0xE0001004) -- Data:  88 4E 00 00  returns 0x01 (0001ms, 0674ms total)
TBD48 009:093 JLINK_ReadMem (0x08001E88, 0x003C Bytes, ...) -- CPU_ReadMem(64 bytes @ 0x08001EC0) -- Updating C cache (64 bytes @ 0x08001EC0) -- Read from C cache (60 bytes @ 0x08001E88) -- Data:  80 21 06 48 FE F7 97 FB 08 49 08 60 00 20 08 49 ...  returns 0x00 (0001ms, 0675ms total)
T11548 010:970 JLINK_Step() -- Read from C cache (2 bytes @ 0x08001E88) -- Simulated  returns 0x00 (0001ms, 0676ms total)
T11548 010:971 JLINK_ReadReg(R15 (PC))  returns 0x08001E8A (0000ms, 0676ms total)
T11548 010:971 JLINK_ReadReg(XPSR)  returns 0x01000027 (0000ms, 0676ms total)
T11548 010:971 JLINK_Step() -- Read from C cache (2 bytes @ 0x08001E8A) -- Read from C cache (4 bytes @ 0x08001EA4) -- Simulated  returns 0x00 (0000ms, 0676ms total)
T11548 010:971 JLINK_ReadReg(R15 (PC))  returns 0x08001E8C (0001ms, 0677ms total)
T11548 010:972 JLINK_ReadReg(XPSR)  returns 0x01000027 (0000ms, 0677ms total)
T11548 010:972 JLINK_SetBPEx(Addr = 0x08001E90, Type = 0xFFFFFFF2)  returns 0x0000000D (0000ms, 0677ms total)
T11548 010:972 JLINK_SetBPEx(Addr = 0x0800207A, Type = 0xFFFFFFF2)  returns 0x0000000E (0000ms, 0677ms total)
T11548 010:972 JLINK_SetBPEx(Addr = 0x08001E80, Type = 0xFFFFFFF2)  returns 0x0000000F (0000ms, 0677ms total)
T11548 010:972 JLINK_Go() -- CPU_WriteMem(4 bytes @ 0xE0002008) (0001ms, 0678ms total)
T11548 011:074 JLINK_IsHalted()  returns TRUE (0002ms, 0680ms total)
T11548 011:076 JLINK_Halt()  returns 0x00 (0000ms, 0678ms total)
T11548 011:076 JLINK_IsHalted()  returns TRUE (0000ms, 0678ms total)
T11548 011:076 JLINK_IsHalted()  returns TRUE (0001ms, 0679ms total)
T11548 011:077 JLINK_IsHalted()  returns TRUE (0000ms, 0678ms total)
T11548 011:077 JLINK_ReadReg(R15 (PC))  returns 0x08001E90 (0000ms, 0678ms total)
T11548 011:077 JLINK_ReadReg(XPSR)  returns 0x01000027 (0000ms, 0678ms total)
T11548 011:077 JLINK_ClrBPEx(BPHandle = 0x0000000D)  returns 0x00 (0000ms, 0678ms total)
T11548 011:077 JLINK_ClrBPEx(BPHandle = 0x0000000E)  returns 0x00 (0000ms, 0678ms total)
T11548 011:077 JLINK_ClrBPEx(BPHandle = 0x0000000F)  returns 0x00 (0000ms, 0678ms total)
T11548 011:077 JLINK_ReadMemU32(0xE000ED30, 0x0001 Items, ...) -- CPU_ReadMem(4 bytes @ 0xE000ED30) -- Data:  03 00 00 00  returns 0x01 (0001ms, 0679ms total)
T11548 011:078 JLINK_ReadMemU32(0xE0001028, 0x0001 Items, ...) -- CPU_ReadMem(4 bytes @ 0xE0001028) -- Data:  00 00 00 00  returns 0x01 (0000ms, 0679ms total)
T11548 011:078 JLINK_ReadMemU32(0xE0001038, 0x0001 Items, ...) -- CPU_ReadMem(4 bytes @ 0xE0001038) -- Data:  00 02 00 00  returns 0x01 (0001ms, 0680ms total)
T11548 011:079 JLINK_ReadMemU32(0xE0001048, 0x0001 Items, ...) -- CPU_ReadMem(4 bytes @ 0xE0001048) -- Data:  00 00 00 00  returns 0x01 (0001ms, 0681ms total)
T11548 011:080 JLINK_ReadMemU32(0xE0001058, 0x0001 Items, ...) -- CPU_ReadMem(4 bytes @ 0xE0001058) -- Data:  00 00 00 00  returns 0x01 (0000ms, 0681ms total)
T11548 011:080 JLINK_Step() -- CPU_ReadMem(64 bytes @ 0x08001E80) -- Updating C cache (64 bytes @ 0x08001E80) -- Read from C cache (2 bytes @ 0x08001E90) -- Read from C cache (4 bytes @ 0x08001EB4) -- Simulated  returns 0x00 (0001ms, 0682ms total)
T11548 011:081 JLINK_ReadReg(R15 (PC))  returns 0x08001E92 (0000ms, 0682ms total)
T11548 011:081 JLINK_ReadReg(XPSR)  returns 0x01000027 (0001ms, 0683ms total)
T11548 011:082 JLINK_Step() -- Read from C cache (2 bytes @ 0x08001E92) -- CPU_WriteMem(4 bytes @ 0x20000038) -- Simulated  returns 0x00 (0000ms, 0683ms total)
T11548 011:082 JLINK_ReadReg(R15 (PC))  returns 0x08001E94 (0000ms, 0683ms total)
T11548 011:082 JLINK_ReadReg(XPSR)  returns 0x01000027 (0000ms, 0683ms total)
T11548 011:083 JLINK_ReadReg(R0)  returns 0x00000001 (0000ms, 0683ms total)
T11548 011:083 JLINK_ReadReg(R1)  returns 0x20000038 (0000ms, 0683ms total)
T11548 011:083 JLINK_ReadReg(R2)  returns 0x40010C00 (0000ms, 0683ms total)
T11548 011:083 JLINK_ReadReg(R3)  returns 0x0000FF93 (0000ms, 0683ms total)
T11548 011:083 JLINK_ReadReg(R4)  returns 0x080023F4 (0000ms, 0683ms total)
T11548 011:083 JLINK_ReadReg(R5)  returns 0x080023F4 (0000ms, 0683ms total)
T11548 011:083 JLINK_ReadReg(R6)  returns 0x00000000 (0000ms, 0683ms total)
T11548 011:083 JLINK_ReadReg(R7)  returns 0x00000000 (0000ms, 0683ms total)
T11548 011:083 JLINK_ReadReg(R8)  returns 0x00000000 (0000ms, 0683ms total)
T11548 011:083 JLINK_ReadReg(R9)  returns 0x20000160 (0000ms, 0683ms total)
T11548 011:083 JLINK_ReadReg(R10)  returns 0x00000000 (0000ms, 0683ms total)
T11548 011:083 JLINK_ReadReg(R11)  returns 0x00000000 (0000ms, 0683ms total)
T11548 011:083 JLINK_ReadReg(R12)  returns 0x00000080 (0000ms, 0683ms total)
T11548 011:083 JLINK_ReadReg(R13 (SP))  returns 0x20001038 (0000ms, 0683ms total)
T11548 011:083 JLINK_ReadReg(R14)  returns 0x08001E91 (0000ms, 0683ms total)
T11548 011:083 JLINK_ReadReg(R15 (PC))  returns 0x08001E94 (0000ms, 0683ms total)
T11548 011:084 JLINK_ReadReg(XPSR)  returns 0x01000027 (0000ms, 0684ms total)
T11548 011:084 JLINK_ReadReg(MSP)  returns 0x20001038 (0000ms, 0684ms total)
T11548 011:084 JLINK_ReadReg(PSP)  returns 0x20000800 (0000ms, 0684ms total)
T11548 011:084 JLINK_ReadReg(CFBP)  returns 0x00000000 (0000ms, 0684ms total)
TBD48 011:084 JLINK_ReadMem (0x2000103C, 0x0004 Bytes, ...) -- CPU_ReadMem(64 bytes @ 0x20001000) -- Updating C cache (64 bytes @ 0x20001000) -- Read from C cache (4 bytes @ 0x2000103C) -- Data:  F9 FF FF FF  returns 0x00 (0001ms, 0685ms total)
TBD48 011:085 JLINK_ReadMem (0x20001058, 0x0004 Bytes, ...) -- CPU_ReadMem(64 bytes @ 0x20001040) -- Updating C cache (64 bytes @ 0x20001040) -- Read from C cache (4 bytes @ 0x20001058) -- Data:  BC 1E 00 08  returns 0x00 (0001ms, 0686ms total)
TBD48 011:086 JLINK_ReadMem (0x2000105C, 0x0004 Bytes, ...) -- Read from C cache (4 bytes @ 0x2000105C) -- Data:  00 00 00 01  returns 0x00 (0000ms, 0686ms total)
TBD48 011:086 JLINK_ReadMem (0x20001054, 0x0004 Bytes, ...) -- Read from C cache (4 bytes @ 0x20001054) -- Data:  7F 20 00 08  returns 0x00 (0000ms, 0686ms total)
TBD48 011:086 JLINK_ReadMem (0xE000ED28, 0x0004 Bytes, ...) -- CPU_ReadMem(4 bytes @ 0xE000ED28) -- Data:  00 00 00 00  returns 0x00 (0001ms, 0687ms total)
TBD48 011:087 JLINK_ReadMemU32(0xE0001004, 0x0001 Items, ...) -- CPU_ReadMem(4 bytes @ 0xE0001004) -- Data:  A2 4E 00 00  returns 0x01 (0001ms, 0688ms total)
TBD48 011:095 JLINK_ReadMem (0x08001E94, 0x003C Bytes, ...) -- CPU_ReadMem(64 bytes @ 0x08001EC0) -- Updating C cache (64 bytes @ 0x08001EC0) -- Read from C cache (60 bytes @ 0x08001E94) -- Data:  00 20 08 49 08 60 80 20 00 F0 F7 F9 10 BD 00 00 ...  returns 0x00 (0001ms, 0689ms total)
T11548 011:712 JLINK_Step() -- Read from C cache (2 bytes @ 0x08001E94) -- Simulated  returns 0x00 (0001ms, 0690ms total)
T11548 011:713 JLINK_ReadReg(R15 (PC))  returns 0x08001E96 (0000ms, 0690ms total)
T11548 011:713 JLINK_ReadReg(XPSR)  returns 0x41000027 (0000ms, 0690ms total)
T11548 011:713 JLINK_Step() -- Read from C cache (2 bytes @ 0x08001E96) -- Read from C cache (4 bytes @ 0x08001EB8) -- Simulated  returns 0x00 (0000ms, 0690ms total)
T11548 011:713 JLINK_ReadReg(R15 (PC))  returns 0x08001E98 (0000ms, 0690ms total)
T11548 011:713 JLINK_ReadReg(XPSR)  returns 0x41000027 (0000ms, 0690ms total)
T11548 011:713 JLINK_Step() -- Read from C cache (2 bytes @ 0x08001E98) -- CPU_WriteMem(4 bytes @ 0x20000034) -- Simulated  returns 0x00 (0001ms, 0691ms total)
T11548 011:714 JLINK_ReadReg(R15 (PC))  returns 0x08001E9A (0000ms, 0691ms total)
T11548 011:714 JLINK_ReadReg(XPSR)  returns 0x41000027 (0000ms, 0691ms total)
T11548 011:714 JLINK_ReadReg(R0)  returns 0x00000000 (0000ms, 0691ms total)
T11548 011:714 JLINK_ReadReg(R1)  returns 0x20000034 (0001ms, 0692ms total)
T11548 011:715 JLINK_ReadReg(R2)  returns 0x40010C00 (0000ms, 0692ms total)
T11548 011:715 JLINK_ReadReg(R3)  returns 0x0000FF93 (0000ms, 0692ms total)
T11548 011:715 JLINK_ReadReg(R4)  returns 0x080023F4 (0000ms, 0692ms total)
T11548 011:715 JLINK_ReadReg(R5)  returns 0x080023F4 (0000ms, 0692ms total)
T11548 011:715 JLINK_ReadReg(R6)  returns 0x00000000 (0000ms, 0692ms total)
T11548 011:715 JLINK_ReadReg(R7)  returns 0x00000000 (0000ms, 0692ms total)
T11548 011:715 JLINK_ReadReg(R8)  returns 0x00000000 (0000ms, 0692ms total)
T11548 011:715 JLINK_ReadReg(R9)  returns 0x20000160 (0000ms, 0692ms total)
T11548 011:715 JLINK_ReadReg(R10)  returns 0x00000000 (0000ms, 0692ms total)
T11548 011:715 JLINK_ReadReg(R11)  returns 0x00000000 (0000ms, 0692ms total)
T11548 011:715 JLINK_ReadReg(R12)  returns 0x00000080 (0000ms, 0692ms total)
T11548 011:715 JLINK_ReadReg(R13 (SP))  returns 0x20001038 (0001ms, 0693ms total)
T11548 011:716 JLINK_ReadReg(R14)  returns 0x08001E91 (0000ms, 0693ms total)
T11548 011:716 JLINK_ReadReg(R15 (PC))  returns 0x08001E9A (0000ms, 0693ms total)
T11548 011:716 JLINK_ReadReg(XPSR)  returns 0x41000027 (0000ms, 0693ms total)
T11548 011:716 JLINK_ReadReg(MSP)  returns 0x20001038 (0000ms, 0693ms total)
T11548 011:716 JLINK_ReadReg(PSP)  returns 0x20000800 (0000ms, 0693ms total)
T11548 011:716 JLINK_ReadReg(CFBP)  returns 0x00000000 (0000ms, 0693ms total)
TBD48 011:720 JLINK_ReadMem (0x2000103C, 0x0004 Bytes, ...) -- Read from C cache (4 bytes @ 0x2000103C) -- Data:  F9 FF FF FF  returns 0x00 (0000ms, 0693ms total)
TBD48 011:720 JLINK_ReadMem (0x20001058, 0x0004 Bytes, ...) -- Read from C cache (4 bytes @ 0x20001058) -- Data:  BC 1E 00 08  returns 0x00 (0000ms, 0693ms total)
TBD48 011:720 JLINK_ReadMem (0x2000105C, 0x0004 Bytes, ...) -- Read from C cache (4 bytes @ 0x2000105C) -- Data:  00 00 00 01  returns 0x00 (0000ms, 0693ms total)
TBD48 011:720 JLINK_ReadMem (0x20001054, 0x0004 Bytes, ...) -- Read from C cache (4 bytes @ 0x20001054) -- Data:  7F 20 00 08  returns 0x00 (0000ms, 0693ms total)
TBD48 011:720 JLINK_ReadMem (0xE000ED28, 0x0004 Bytes, ...) -- CPU_ReadMem(4 bytes @ 0xE000ED28) -- Data:  00 00 00 00  returns 0x00 (0001ms, 0694ms total)
TBD48 011:721 JLINK_ReadMemU32(0xE0001004, 0x0001 Items, ...) -- Data:  A2 4E 00 00  returns 0x01 (0000ms, 0694ms total)
TBD48 011:725 JLINK_ReadMem (0x08001E9A, 0x0002 Bytes, ...) -- Read from C cache (2 bytes @ 0x08001E9A) -- Data:  80 20  returns 0x00 (0000ms, 0694ms total)
TBD48 011:725 JLINK_ReadMem (0x08001E9C, 0x003C Bytes, ...) -- Read from C cache (60 bytes @ 0x08001E9C) -- Data:  00 F0 F7 F9 10 BD 00 00 00 0C 01 40 00 04 00 40 ...  returns 0x00 (0000ms, 0694ms total)
T11548 014:006 JLINK_SetBPEx(Addr = 0x0800207A, Type = 0xFFFFFFF2)  returns 0x00000010 (0000ms, 0694ms total)
T11548 014:006 JLINK_SetBPEx(Addr = 0x08001E80, Type = 0xFFFFFFF2)  returns 0x00000011 (0001ms, 0695ms total)
T11548 014:007 JLINK_Go() -- CPU_WriteMem(4 bytes @ 0xE0002008) -- CPU_WriteMem(4 bytes @ 0xE000200C) -- CPU_WriteMem(4 bytes @ 0xE0002010) (0002ms, 0697ms total)
T11548 014:110 JLINK_IsHalted()  returns TRUE (0002ms, 0699ms total)
T11548 014:112 JLINK_Halt()  returns 0x00 (0000ms, 0697ms total)
T11548 014:112 JLINK_IsHalted()  returns TRUE (0000ms, 0697ms total)
T11548 014:112 JLINK_IsHalted()  returns TRUE (0000ms, 0697ms total)
T11548 014:112 JLINK_IsHalted()  returns TRUE (0000ms, 0697ms total)
T11548 014:112 JLINK_ReadReg(R15 (PC))  returns 0x08001E80 (0000ms, 0697ms total)
T11548 014:112 JLINK_ReadReg(XPSR)  returns 0x41000027 (0000ms, 0697ms total)
T11548 014:112 JLINK_ClrBPEx(BPHandle = 0x00000010)  returns 0x00 (0000ms, 0697ms total)
T11548 014:112 JLINK_ClrBPEx(BPHandle = 0x00000011)  returns 0x00 (0000ms, 0697ms total)
T11548 014:112 JLINK_ReadMemU32(0xE000ED30, 0x0001 Items, ...) -- CPU_ReadMem(4 bytes @ 0xE000ED30) -- Data:  03 00 00 00  returns 0x01 (0000ms, 0697ms total)
T11548 014:112 JLINK_ReadMemU32(0xE0001028, 0x0001 Items, ...) -- CPU_ReadMem(4 bytes @ 0xE0001028) -- Data:  00 00 00 00  returns 0x01 (0001ms, 0698ms total)
T11548 014:113 JLINK_ReadMemU32(0xE0001038, 0x0001 Items, ...) -- CPU_ReadMem(4 bytes @ 0xE0001038) -- Data:  00 02 00 00  returns 0x01 (0000ms, 0698ms total)
T11548 014:113 JLINK_ReadMemU32(0xE0001048, 0x0001 Items, ...) -- CPU_ReadMem(4 bytes @ 0xE0001048) -- Data:  00 00 00 00  returns 0x01 (0001ms, 0699ms total)
T11548 014:114 JLINK_ReadMemU32(0xE0001058, 0x0001 Items, ...) -- CPU_ReadMem(4 bytes @ 0xE0001058) -- Data:  00 00 00 00  returns 0x01 (0000ms, 0699ms total)
T11548 014:114 JLINK_ReadReg(R0)  returns 0x00000000 (0000ms, 0699ms total)
T11548 014:114 JLINK_ReadReg(R1)  returns 0x00000040 (0000ms, 0699ms total)
T11548 014:114 JLINK_ReadReg(R2)  returns 0x40013800 (0000ms, 0699ms total)
T11548 014:114 JLINK_ReadReg(R3)  returns 0x00000000 (0000ms, 0699ms total)
T11548 014:114 JLINK_ReadReg(R4)  returns 0x00000074 (0000ms, 0699ms total)
T11548 014:114 JLINK_ReadReg(R5)  returns 0x20000044 (0000ms, 0699ms total)
T11548 014:114 JLINK_ReadReg(R6)  returns 0x08001DC7 (0000ms, 0699ms total)
T11548 014:114 JLINK_ReadReg(R7)  returns 0x00000006 (0000ms, 0699ms total)
T11548 014:114 JLINK_ReadReg(R8)  returns 0x20001060 (0000ms, 0699ms total)
T11548 014:114 JLINK_ReadReg(R9)  returns 0x08001CFD (0001ms, 0700ms total)
T11548 014:115 JLINK_ReadReg(R10)  returns 0x20000044 (0000ms, 0700ms total)
T11548 014:115 JLINK_ReadReg(R11)  returns 0x00000000 (0000ms, 0700ms total)
T11548 014:115 JLINK_ReadReg(R12)  returns 0x00000080 (0000ms, 0700ms total)
T11548 014:115 JLINK_ReadReg(R13 (SP))  returns 0x20000FF0 (0000ms, 0700ms total)
T11548 014:115 JLINK_ReadReg(R14)  returns 0xFFFFFFF9 (0000ms, 0700ms total)
T11548 014:115 JLINK_ReadReg(R15 (PC))  returns 0x08001E80 (0000ms, 0700ms total)
T11548 014:115 JLINK_ReadReg(XPSR)  returns 0x41000027 (0000ms, 0700ms total)
T11548 014:115 JLINK_ReadReg(MSP)  returns 0x20000FF0 (0000ms, 0700ms total)
T11548 014:115 JLINK_ReadReg(PSP)  returns 0x20000800 (0000ms, 0700ms total)
T11548 014:115 JLINK_ReadReg(CFBP)  returns 0x00000000 (0000ms, 0700ms total)
TBD48 014:115 JLINK_ReadMem (0x20000FF4, 0x0004 Bytes, ...) -- CPU_ReadMem(64 bytes @ 0x20000FC0) -- Updating C cache (64 bytes @ 0x20000FC0) -- Read from C cache (4 bytes @ 0x20000FF4) -- Data:  F9 FF FF FF  returns 0x00 (0001ms, 0701ms total)
TBD48 014:116 JLINK_ReadMem (0x20001010, 0x0004 Bytes, ...) -- CPU_ReadMem(64 bytes @ 0x20001000) -- Updating C cache (64 bytes @ 0x20001000) -- Read from C cache (4 bytes @ 0x20001010) -- Data:  14 1D 00 08  returns 0x00 (0000ms, 0701ms total)
TBD48 014:116 JLINK_ReadMem (0x20001014, 0x0004 Bytes, ...) -- Read from C cache (4 bytes @ 0x20001014) -- Data:  00 00 00 41  returns 0x00 (0000ms, 0701ms total)
TBD48 014:116 JLINK_ReadMem (0x2000100C, 0x0004 Bytes, ...) -- Read from C cache (4 bytes @ 0x2000100C) -- Data:  15 1D 00 08  returns 0x00 (0000ms, 0701ms total)
TBD48 014:116 JLINK_ReadMem (0xE000ED28, 0x0004 Bytes, ...) -- CPU_ReadMem(4 bytes @ 0xE000ED28) -- Data:  00 00 00 00  returns 0x00 (0001ms, 0702ms total)
TBD48 014:117 JLINK_ReadMem (0x20001024, 0x0004 Bytes, ...) -- Read from C cache (4 bytes @ 0x20001024) -- Data:  C1 23 00 08  returns 0x00 (0000ms, 0702ms total)
TBD48 014:117 JLINK_ReadMem (0x20001018, 0x0004 Bytes, ...) -- Read from C cache (4 bytes @ 0x20001018) -- Data:  03 00 00 00  returns 0x00 (0000ms, 0702ms total)
TBD48 014:117 JLINK_ReadMem (0x2000101C, 0x0004 Bytes, ...) -- Read from C cache (4 bytes @ 0x2000101C) -- Data:  CD 1D 00 08  returns 0x00 (0000ms, 0702ms total)
TBD48 014:117 JLINK_ReadMem (0x20001020, 0x0004 Bytes, ...) -- Read from C cache (4 bytes @ 0x20001020) -- Data:  C7 1D 00 08  returns 0x00 (0000ms, 0702ms total)
TBD48 014:117 JLINK_ReadMem (0x2000104C, 0x0004 Bytes, ...) -- CPU_ReadMem(64 bytes @ 0x20001040) -- Updating C cache (64 bytes @ 0x20001040) -- Read from C cache (4 bytes @ 0x2000104C) -- Data:  D5 22 00 08  returns 0x00 (0001ms, 0703ms total)
TBD48 014:118 JLINK_ReadMem (0x2000102C, 0x0004 Bytes, ...) -- Read from C cache (4 bytes @ 0x2000102C) -- Data:  F4 23 00 08  returns 0x00 (0000ms, 0703ms total)
TBD48 014:118 JLINK_ReadMem (0x20001030, 0x0004 Bytes, ...) -- Read from C cache (4 bytes @ 0x20001030) -- Data:  F4 23 00 08  returns 0x00 (0000ms, 0703ms total)
TBD48 014:118 JLINK_ReadMem (0x20001034, 0x0004 Bytes, ...) -- Read from C cache (4 bytes @ 0x20001034) -- Data:  00 00 00 00  returns 0x00 (0000ms, 0703ms total)
TBD48 014:118 JLINK_ReadMem (0x20001038, 0x0004 Bytes, ...) -- Read from C cache (4 bytes @ 0x20001038) -- Data:  00 00 00 00  returns 0x00 (0000ms, 0703ms total)
TBD48 014:118 JLINK_ReadMem (0x2000103C, 0x0004 Bytes, ...) -- Read from C cache (4 bytes @ 0x2000103C) -- Data:  00 00 00 00  returns 0x00 (0000ms, 0703ms total)
TBD48 014:118 JLINK_ReadMem (0x20001040, 0x0004 Bytes, ...) -- Read from C cache (4 bytes @ 0x20001040) -- Data:  60 01 00 20  returns 0x00 (0000ms, 0703ms total)
TBD48 014:118 JLINK_ReadMem (0x20001044, 0x0004 Bytes, ...) -- Read from C cache (4 bytes @ 0x20001044) -- Data:  00 00 00 00  returns 0x00 (0000ms, 0703ms total)
TBD48 014:118 JLINK_ReadMem (0x20001048, 0x0004 Bytes, ...) -- Read from C cache (4 bytes @ 0x20001048) -- Data:  00 00 00 00  returns 0x00 (0000ms, 0703ms total)
TBD48 014:118 JLINK_ReadMem (0x20001054, 0x0004 Bytes, ...) -- Read from C cache (4 bytes @ 0x20001054) -- Data:  39 1D 00 08  returns 0x00 (0000ms, 0703ms total)
TBD48 014:118 JLINK_ReadMem (0x20001050, 0x0004 Bytes, ...) -- Read from C cache (4 bytes @ 0x20001050) -- Data:  F4 23 00 08  returns 0x00 (0000ms, 0703ms total)
TBD48 014:126 JLINK_ReadMemU32(0xE0001004, 0x0001 Items, ...) -- CPU_ReadMem(4 bytes @ 0xE0001004) -- Data:  56 6B 00 00  returns 0x01 (0001ms, 0704ms total)
TBD48 014:130 JLINK_ReadMem (0x08001E80, 0x003C Bytes, ...) -- CPU_ReadMem(64 bytes @ 0x08001E80) -- Updating C cache (64 bytes @ 0x08001E80) -- Read from C cache (60 bytes @ 0x08001E80) -- Data:  80 20 00 F0 F3 F9 58 B1 80 21 06 48 FE F7 97 FB ...  returns 0x00 (0001ms, 0705ms total)
T11548 014:853 JLINK_Step() -- Read from C cache (2 bytes @ 0x08001E80) -- Simulated  returns 0x00 (0001ms, 0706ms total)
T11548 014:854 JLINK_ReadReg(R15 (PC))  returns 0x08001E82 (0000ms, 0706ms total)
T11548 014:854 JLINK_ReadReg(XPSR)  returns 0x01000027 (0000ms, 0706ms total)
T11548 014:854 JLINK_SetBPEx(Addr = 0x0800207A, Type = 0xFFFFFFF2)  returns 0x00000012 (0000ms, 0706ms total)
T11548 014:854 JLINK_SetBPEx(Addr = 0x08001E80, Type = 0xFFFFFFF2)  returns 0x00000013 (0000ms, 0706ms total)
T11548 014:854 JLINK_Go() (0001ms, 0707ms total)
T11548 014:956 JLINK_IsHalted()  returns TRUE (0002ms, 0709ms total)
T11548 014:958 JLINK_Halt()  returns 0x00 (0000ms, 0707ms total)
T11548 014:958 JLINK_IsHalted()  returns TRUE (0000ms, 0707ms total)
T11548 014:958 JLINK_IsHalted()  returns TRUE (0000ms, 0707ms total)
T11548 014:958 JLINK_IsHalted()  returns TRUE (0000ms, 0707ms total)
T11548 014:958 JLINK_ReadReg(R15 (PC))  returns 0x08001E80 (0000ms, 0707ms total)
T11548 014:958 JLINK_ReadReg(XPSR)  returns 0x41000027 (0000ms, 0707ms total)
T11548 014:958 JLINK_ClrBPEx(BPHandle = 0x00000012)  returns 0x00 (0000ms, 0707ms total)
T11548 014:958 JLINK_ClrBPEx(BPHandle = 0x00000013)  returns 0x00 (0000ms, 0707ms total)
T11548 014:958 JLINK_ReadMemU32(0xE000ED30, 0x0001 Items, ...) -- CPU_ReadMem(4 bytes @ 0xE000ED30) -- Data:  03 00 00 00  returns 0x01 (0001ms, 0708ms total)
T11548 014:959 JLINK_ReadMemU32(0xE0001028, 0x0001 Items, ...) -- CPU_ReadMem(4 bytes @ 0xE0001028) -- Data:  00 00 00 00  returns 0x01 (0000ms, 0708ms total)
T11548 014:959 JLINK_ReadMemU32(0xE0001038, 0x0001 Items, ...) -- CPU_ReadMem(4 bytes @ 0xE0001038) -- Data:  00 02 00 00  returns 0x01 (0001ms, 0709ms total)
T11548 014:960 JLINK_ReadMemU32(0xE0001048, 0x0001 Items, ...) -- CPU_ReadMem(4 bytes @ 0xE0001048) -- Data:  00 00 00 00  returns 0x01 (0000ms, 0709ms total)
T11548 014:960 JLINK_ReadMemU32(0xE0001058, 0x0001 Items, ...) -- CPU_ReadMem(4 bytes @ 0xE0001058) -- Data:  00 00 00 00  returns 0x01 (0001ms, 0710ms total)
T11548 014:961 JLINK_ReadReg(R0)  returns 0x00000000 (0000ms, 0710ms total)
T11548 014:961 JLINK_ReadReg(R1)  returns 0x00000040 (0000ms, 0710ms total)
T11548 014:961 JLINK_ReadReg(R2)  returns 0x40013800 (0000ms, 0710ms total)
T11548 014:961 JLINK_ReadReg(R3)  returns 0x00000080 (0000ms, 0710ms total)
T11548 014:961 JLINK_ReadReg(R4)  returns 0x00000020 (0000ms, 0710ms total)
T11548 014:961 JLINK_ReadReg(R5)  returns 0x20000044 (0000ms, 0710ms total)
T11548 014:961 JLINK_ReadReg(R6)  returns 0x08001DCA (0000ms, 0710ms total)
T11548 014:961 JLINK_ReadReg(R7)  returns 0x00000007 (0000ms, 0710ms total)
T11548 014:961 JLINK_ReadReg(R8)  returns 0x20001060 (0000ms, 0710ms total)
T11548 014:961 JLINK_ReadReg(R9)  returns 0x08001CFD (0000ms, 0710ms total)
T11548 014:961 JLINK_ReadReg(R10)  returns 0x20000044 (0000ms, 0710ms total)
T11548 014:961 JLINK_ReadReg(R11)  returns 0x00000000 (0000ms, 0710ms total)
T11548 014:961 JLINK_ReadReg(R12)  returns 0x00000080 (0000ms, 0710ms total)
T11548 014:961 JLINK_ReadReg(R13 (SP))  returns 0x20000FF0 (0000ms, 0710ms total)
T11548 014:961 JLINK_ReadReg(R14)  returns 0xFFFFFFF9 (0000ms, 0710ms total)
T11548 014:961 JLINK_ReadReg(R15 (PC))  returns 0x08001E80 (0000ms, 0710ms total)
T11548 014:961 JLINK_ReadReg(XPSR)  returns 0x41000027 (0000ms, 0710ms total)
T11548 014:961 JLINK_ReadReg(MSP)  returns 0x20000FF0 (0000ms, 0710ms total)
T11548 014:961 JLINK_ReadReg(PSP)  returns 0x20000800 (0000ms, 0710ms total)
T11548 014:961 JLINK_ReadReg(CFBP)  returns 0x00000000 (0000ms, 0710ms total)
TBD48 014:962 JLINK_ReadMem (0x20000FF4, 0x0004 Bytes, ...) -- CPU_ReadMem(64 bytes @ 0x20000FC0) -- Updating C cache (64 bytes @ 0x20000FC0) -- Read from C cache (4 bytes @ 0x20000FF4) -- Data:  F9 FF FF FF  returns 0x00 (0001ms, 0711ms total)
TBD48 014:963 JLINK_ReadMem (0x20001010, 0x0004 Bytes, ...) -- CPU_ReadMem(64 bytes @ 0x20001000) -- Updating C cache (64 bytes @ 0x20001000) -- Read from C cache (4 bytes @ 0x20001010) -- Data:  14 1D 00 08  returns 0x00 (0001ms, 0712ms total)
TBD48 014:964 JLINK_ReadMem (0x20001014, 0x0004 Bytes, ...) -- Read from C cache (4 bytes @ 0x20001014) -- Data:  00 00 00 41  returns 0x00 (0000ms, 0712ms total)
